time	V(n001)	V(n002)	I(L1)	I(L2)
0.000000000000000e+000	1.000000e+000	1.000000e-015	1.000000e-005	1.000000e-020
9.999999439624929e-011	1.000000e+000	7.300090e-014	1.000010e-005	1.000051e-020
1.999999887924986e-010	1.000000e+000	1.450024e-013	1.000020e-005	1.000135e-020
4.497182362075547e-004	9.999974e-001	7.607750e-006	4.597387e-004	-8.446869e-010
8.994362724151205e-004	9.999897e-001	2.977486e-005	9.094462e-004	-4.080175e-010
1.349154308622686e-003	9.999769e-001	6.650133e-005	1.359123e-003	1.310008e-009
1.798872344830252e-003	9.999591e-001	1.177872e-004	1.808768e-003	4.309390e-009
2.248590381037818e-003	9.999363e-001	1.836323e-004	2.258382e-003	8.590129e-009
2.698308417245384e-003	9.999083e-001	2.640369e-004	2.707965e-003	1.415222e-008
3.148026453452949e-003	9.998754e-001	3.590008e-004	3.157517e-003	2.099567e-008
3.610883596310078e-003	9.998361e-001	4.719431e-004	3.620140e-003	3.065557e-008
4.073740739167207e-003	9.997916e-001	6.002923e-004	4.082664e-003	4.440830e-008
4.536597882024335e-003	9.997416e-001	7.440483e-004	4.545088e-003	6.225387e-008
4.999455024881464e-003	9.996864e-001	9.032113e-004	5.007413e-003	8.419227e-008
5.462312167738593e-003	9.996258e-001	1.077781e-003	5.469639e-003	1.102235e-007
5.925169310595722e-003	9.995598e-001	1.267758e-003	5.931766e-003	1.403476e-007
6.388026453452850e-003	9.994885e-001	1.473141e-003	6.393793e-003	1.745645e-007
6.908026453452829e-003	9.994020e-001	1.722252e-003	6.912709e-003	2.192716e-007
7.428026453452807e-003	9.993087e-001	1.990764e-003	7.431410e-003	2.728570e-007
7.948026453452786e-003	9.992087e-001	2.278679e-003	7.949895e-003	3.353206e-007
8.468026453452765e-003	9.991020e-001	2.585995e-003	8.468165e-003	4.066624e-007
8.988026453452744e-003	9.989886e-001	2.912713e-003	8.986220e-003	4.868824e-007
9.508026453452724e-003	9.988684e-001	3.258832e-003	9.504059e-003	5.759807e-007
1.002802645345270e-002	9.987415e-001	3.624354e-003	1.002168e-002	6.739572e-007
1.003802645345270e-002	9.987390e-001	3.631573e-003	1.003163e-002	6.759727e-007
1.070231216773839e-002	9.985669e-001	4.127205e-003	1.069252e-002	8.161326e-007
1.136659788202408e-002	9.983838e-001	4.654361e-003	1.135288e-002	9.780748e-007
1.203088359630976e-002	9.981898e-001	5.213043e-003	1.201271e-002	1.161799e-006
1.269516931059545e-002	9.979849e-001	5.803250e-003	1.267201e-002	1.367306e-006
1.335945502488114e-002	9.977690e-001	6.424981e-003	1.333079e-002	1.594595e-006
1.402374073916683e-002	9.975421e-001	7.078238e-003	1.398903e-002	1.843666e-006
1.468802645345251e-002	9.973043e-001	7.763019e-003	1.464675e-002	2.114520e-006
1.548516931059534e-002	9.970045e-001	8.626312e-003	1.543522e-002	2.472266e-006
1.628231216773816e-002	9.966891e-001	9.534648e-003	1.622261e-002	2.874230e-006
1.707945502488099e-002	9.963580e-001	1.048803e-002	1.700893e-002	3.320413e-006
1.787659788202381e-002	9.960112e-001	1.148645e-002	1.779418e-002	3.810814e-006
1.867374073916664e-002	9.956488e-001	1.252992e-002	1.857836e-002	4.345433e-006
1.947088359630946e-002	9.952708e-001	1.361842e-002	1.936147e-002	4.924271e-006
2.026802645345228e-002	9.948771e-001	1.475198e-002	2.014350e-002	5.547327e-006
2.027802645345228e-002	9.948720e-001	1.476648e-002	2.015330e-002	5.555527e-006
2.147945502488081e-002	9.942488e-001	1.656091e-002	2.132980e-002	6.583587e-006
2.268088359630933e-002	9.935905e-001	1.845612e-002	2.250290e-002	7.751615e-006
2.388231216773785e-002	9.928972e-001	2.045210e-002	2.367261e-002	9.059611e-006
2.508374073916637e-002	9.921689e-001	2.254886e-002	2.483892e-002	1.050758e-005
2.628516931059490e-002	9.914055e-001	2.474640e-002	2.600184e-002	1.209551e-005
2.748659788202342e-002	9.906071e-001	2.704471e-002	2.716137e-002	1.382341e-005
2.868802645345194e-002	9.897736e-001	2.944381e-002	2.831750e-002	1.569128e-005
2.894802645345193e-002	9.895887e-001	2.997596e-002	2.856709e-002	1.612025e-005
2.920802645345192e-002	9.894022e-001	3.051276e-002	2.881650e-002	1.655710e-005
2.946802645345191e-002	9.892141e-001	3.105422e-002	2.906571e-002	1.700185e-005
2.972802645345190e-002	9.890244e-001	3.160033e-002	2.931474e-002	1.745448e-005
2.998802645345189e-002	9.888331e-001	3.215109e-002	2.956357e-002	1.791501e-005
3.024802645345188e-002	9.886401e-001	3.270651e-002	2.981221e-002	1.838342e-005
3.050802645345187e-002	9.884455e-001	3.326659e-002	3.006066e-002	1.885972e-005
3.051802645345187e-002	9.884380e-001	3.328822e-002	3.007021e-002	1.887820e-005
3.197945502488085e-002	9.873133e-001	3.652543e-002	3.146364e-002	2.168194e-005
3.344088359630983e-002	9.861384e-001	3.990662e-002	3.284985e-002	2.478363e-005
3.490231216773881e-002	9.849134e-001	4.343179e-002	3.422882e-002	2.818328e-005
3.636374073916780e-002	9.836382e-001	4.710094e-002	3.560058e-002	3.188088e-005
3.782516931059678e-002	9.823130e-001	5.091406e-002	3.696510e-002	3.587644e-005
3.928659788202576e-002	9.809376e-001	5.487117e-002	3.832240e-002	4.016996e-005
4.074802645345475e-002	9.795121e-001	5.897225e-002	3.967247e-002	4.476143e-005
4.075802645345475e-002	9.795022e-001	5.900078e-002	3.968167e-002	4.479420e-005
4.221945502488377e-002	9.780270e-001	6.324434e-002	4.102345e-002	4.972768e-005
4.368088359631279e-002	9.765038e-001	6.762557e-002	4.235605e-002	5.503930e-005
4.514231216774181e-002	9.749326e-001	7.214448e-002	4.367948e-002	6.072906e-005
4.660374073917083e-002	9.733134e-001	7.680107e-002	4.499373e-002	6.679697e-005
4.806516931059984e-002	9.716462e-001	8.159534e-002	4.629881e-002	7.324302e-005
4.952659788202887e-002	9.699309e-001	8.652728e-002	4.759472e-002	8.006721e-005
5.098802645345788e-002	9.681676e-001	9.159690e-002	4.888146e-002	8.726954e-005
5.099802645345788e-002	9.681554e-001	9.163204e-002	4.889022e-002	8.732043e-005
5.245945502488690e-002	9.663448e-001	9.683702e-002	5.016674e-002	9.494388e-005
5.392088359631592e-002	9.644888e-001	1.021719e-001	5.143223e-002	1.030216e-004
5.538231216774495e-002	9.625873e-001	1.076367e-001	5.268670e-002	1.115537e-004
5.684374073917396e-002	9.606404e-001	1.132315e-001	5.393015e-002	1.205401e-004
5.830516931060298e-002	9.586481e-001	1.189561e-001	5.516257e-002	1.299809e-004
5.976659788203200e-002	9.566103e-001	1.248107e-001	5.638397e-002	1.398760e-004
6.122802645346102e-002	9.545271e-001	1.307952e-001	5.759435e-002	1.502253e-004
6.123802645346102e-002	9.545127e-001	1.308366e-001	5.760259e-002	1.502980e-004
6.269945502488915e-002	9.523851e-001	1.369479e-001	5.880093e-002	1.611432e-004
6.416088359631728e-002	9.502151e-001	1.431800e-001	5.998652e-002	1.725140e-004
6.562231216774542e-002	9.480027e-001	1.495329e-001	6.115935e-002	1.844105e-004
6.708374073917355e-002	9.457479e-001	1.560065e-001	6.231942e-002	1.968328e-004
6.854516931060167e-002	9.434507e-001	1.626010e-001	6.346674e-002	2.097807e-004
7.000659788202980e-002	9.411111e-001	1.693162e-001	6.460129e-002	2.232544e-004
7.146802645345793e-002	9.387292e-001	1.761522e-001	6.572309e-002	2.372537e-004
7.147802645345792e-002	9.387127e-001	1.761993e-001	6.573071e-002	2.373516e-004
7.293945502488593e-002	9.362896e-001	1.831523e-001	6.683879e-002	2.519161e-004
7.440088359631393e-002	9.338276e-001	1.902156e-001	6.793251e-002	2.670720e-004
7.586231216774195e-002	9.313267e-001	1.973892e-001	6.901188e-002	2.828195e-004
7.732374073916995e-002	9.287868e-001	2.046732e-001	7.007688e-002	2.991585e-004
7.878516931059795e-002	9.262081e-001	2.120676e-001	7.112752e-002	3.160890e-004
8.024659788202596e-002	9.235904e-001	2.195724e-001	7.216380e-002	3.336110e-004
8.170802645345396e-002	9.209338e-001	2.271875e-001	7.318572e-002	3.517245e-004
8.171802645345395e-002	9.209155e-001	2.272399e-001	7.319266e-002	3.518508e-004
8.317945502488196e-002	9.182215e-001	2.349608e-001	7.419932e-002	3.705928e-004
8.464088359630996e-002	9.154924e-001	2.427805e-001	7.519017e-002	3.899860e-004
8.610231216773798e-002	9.127283e-001	2.506990e-001	7.616521e-002	4.100301e-004
8.756374073916598e-002	9.099291e-001	2.587162e-001	7.712444e-002	4.307253e-004
8.902516931059398e-002	9.070949e-001	2.668322e-001	7.806786e-002	4.520716e-004
9.048659788202199e-002	9.042256e-001	2.750470e-001	7.899547e-002	4.740688e-004
9.194802645344999e-002	9.013213e-001	2.833606e-001	7.990727e-002	4.967172e-004
9.195802645344998e-002	9.013013e-001	2.834178e-001	7.991344e-002	4.968746e-004
9.341945502487799e-002	8.983637e-001	2.918249e-001	8.080860e-002	5.202083e-004
9.488088359630599e-002	8.953952e-001	3.003181e-001	8.168666e-002	5.442456e-004
9.634231216773401e-002	8.923959e-001	3.088974e-001	8.254762e-002	5.689866e-004
9.780374073916201e-002	8.893658e-001	3.175629e-001	8.339149e-002	5.944313e-004
9.926516931059001e-002	8.863048e-001	3.263146e-001	8.421826e-002	6.205797e-004
1.007265978820180e-001	8.832129e-001	3.351523e-001	8.502794e-002	6.474318e-004
1.021880264534460e-001	8.800902e-001	3.440762e-001	8.582052e-002	6.749876e-004
1.021980264534460e-001	8.800688e-001	3.441375e-001	8.582588e-002	6.751788e-004
1.036594550248740e-001	8.769172e-001	3.531417e-001	8.660060e-002	7.034694e-004
1.051208835963020e-001	8.737393e-001	3.622184e-001	8.735713e-002	7.325088e-004
1.065823121677300e-001	8.705352e-001	3.713678e-001	8.809545e-002	7.622971e-004
1.080437407391580e-001	8.673046e-001	3.805897e-001	8.881557e-002	7.928343e-004
1.095051693105860e-001	8.640478e-001	3.898842e-001	8.951749e-002	8.241204e-004
1.109665978820141e-001	8.607647e-001	3.992512e-001	9.020121e-002	8.561553e-004
1.124280264534421e-001	8.574552e-001	4.086908e-001	9.086672e-002	8.889391e-004
1.124380264534420e-001	8.574325e-001	4.087556e-001	9.087121e-002	8.891661e-004
1.138994550248701e-001	8.540988e-001	4.182614e-001	9.151786e-002	9.227265e-004
1.153608835962981e-001	8.507437e-001	4.278255e-001	9.214538e-002	9.570729e-004
1.168223121677261e-001	8.473670e-001	4.374477e-001	9.275378e-002	9.922054e-004
1.182837407391541e-001	8.439687e-001	4.471282e-001	9.334307e-002	1.028124e-003
1.197451693105821e-001	8.405489e-001	4.568670e-001	9.391324e-002	1.064829e-003
1.212065978820101e-001	8.371076e-001	4.666640e-001	9.446429e-002	1.102320e-003
1.226680264534381e-001	8.336447e-001	4.765192e-001	9.499622e-002	1.140597e-003
1.226780264534381e-001	8.336210e-001	4.765868e-001	9.499980e-002	1.140861e-003
1.241394550248677e-001	8.301389e-001	4.864934e-001	9.551203e-002	1.179948e-003
1.256008835962972e-001	8.266402e-001	4.964432e-001	9.600443e-002	1.219850e-003
1.270623121677268e-001	8.231250e-001	5.064364e-001	9.647700e-002	1.260567e-003
1.285237407391564e-001	8.195933e-001	5.164728e-001	9.692974e-002	1.302099e-003
1.299851693105859e-001	8.160450e-001	5.265525e-001	9.736264e-002	1.344446e-003
1.314465978820155e-001	8.124802e-001	5.366754e-001	9.777571e-002	1.387608e-003
1.329080264534451e-001	8.088988e-001	5.468417e-001	9.816895e-002	1.431585e-003
1.329180264534451e-001	8.088743e-001	5.469114e-001	9.817157e-002	1.431889e-003
1.343794550248751e-001	8.052788e-001	5.571136e-001	9.854448e-002	1.476701e-003
1.358408835963051e-001	8.016719e-001	5.673436e-001	9.889706e-002	1.522348e-003
1.373023121677352e-001	7.980536e-001	5.776016e-001	9.922930e-002	1.568830e-003
1.387637407391652e-001	7.944239e-001	5.878873e-001	9.954119e-002	1.616148e-003
1.402251693105953e-001	7.907828e-001	5.982009e-001	9.983275e-002	1.664301e-003
1.416865978820253e-001	7.871304e-001	6.085424e-001	1.001040e-001	1.713289e-003
1.431480264534553e-001	7.834665e-001	6.189117e-001	1.003548e-001	1.763112e-003
1.431580264534553e-001	7.834414e-001	6.189827e-001	1.003565e-001	1.763456e-003
1.446194550248854e-001	7.797686e-001	6.293722e-001	1.005866e-001	1.814130e-003
1.460808835963154e-001	7.760898e-001	6.397738e-001	1.007962e-001	1.865651e-003
1.475423121677454e-001	7.724047e-001	6.501876e-001	1.009850e-001	1.918019e-003
1.490037407391755e-001	7.687135e-001	6.606134e-001	1.011533e-001	1.971233e-003
1.504651693106055e-001	7.650162e-001	6.710513e-001	1.013009e-001	2.025294e-003
1.519265978820355e-001	7.613127e-001	6.815014e-001	1.014279e-001	2.080201e-003
1.533880264534656e-001	7.576030e-001	6.919635e-001	1.015342e-001	2.135955e-003
1.533980264534656e-001	7.575777e-001	6.920351e-001	1.015349e-001	2.136340e-003
1.636380264534758e-001	7.315422e-001	7.652918e-001	1.016975e-001	2.550877e-003
1.738780264534861e-001	7.055951e-001	8.379732e-001	1.008459e-001	3.006963e-003
1.841180264534963e-001	6.799947e-001	9.093048e-001	9.899221e-002	3.504048e-003
1.943580264535065e-001	6.549947e-001	9.785255e-001	9.615892e-002	4.041149e-003
2.045980264535168e-001	6.308421e-001	1.044896e+000	9.237892e-002	4.616852e-003
2.148380264535270e-001	6.077739e-001	1.107705e+000	8.769497e-002	5.229332e-003
2.250780264535373e-001	5.860150e-001	1.166278e+000	8.215927e-002	5.876371e-003
2.353180264535475e-001	5.657759e-001	1.219986e+000	7.583298e-002	6.555375e-003
2.455580264535577e-001	5.472501e-001	1.268248e+000	6.878549e-002	7.263411e-003
2.557980264535680e-001	5.306126e-001	1.310539e+000	6.109377e-002	7.997227e-003
2.660380264535782e-001	5.160179e-001	1.346399e+000	5.284153e-002	8.753293e-003
2.762780264535885e-001	5.035980e-001	1.375430e+000	4.411831e-002	9.527834e-003
2.865180264535987e-001	4.934615e-001	1.397308e+000	3.501863e-002	1.031687e-002
2.967580264536089e-001	4.856922e-001	1.411783e+000	2.564090e-002	1.111626e-002
3.069980264536192e-001	4.803484e-001	1.418681e+000	1.608644e-002	1.192173e-002
3.075837407393340e-001	4.801169e-001	1.418844e+000	1.553668e-002	1.196790e-002
3.081694550250489e-001	4.798934e-001	1.418982e+000	1.498675e-002	1.201407e-002
3.087551693107638e-001	4.796780e-001	1.419095e+000	1.443664e-002	1.206024e-002
3.093408835964787e-001	4.794706e-001	1.419182e+000	1.388636e-002	1.210642e-002
3.099265978821935e-001	4.792713e-001	1.419245e+000	1.333591e-002	1.215260e-002
3.105123121679084e-001	4.790801e-001	1.419282e+000	1.278529e-002	1.219878e-002
3.110980264536233e-001	4.788969e-001	1.419294e+000	1.223449e-002	1.224496e-002
3.172380264536294e-001	4.774622e-001	1.417906e+000	6.458438e-003	1.272894e-002
3.182208835964875e-001	4.773149e-001	1.417427e+000	5.534043e-003	1.280636e-002
3.192037407393457e-001	4.771903e-001	1.416876e+000	4.610248e-003	1.288374e-002
3.201865978822038e-001	4.770883e-001	1.416256e+000	3.687056e-003	1.296109e-002
3.211694550250620e-001	4.770090e-001	1.415564e+000	2.764466e-003	1.303839e-002
3.221523121679201e-001	4.769524e-001	1.414802e+000	1.842477e-003	1.311566e-002
3.231351693107782e-001	4.769185e-001	1.413969e+000	9.210904e-004	1.319289e-002
3.241180264536363e-001	4.769072e-001	1.413065e+000	3.054304e-007	1.327008e-002
3.274780264536397e-001	4.770391e-001	1.409443e+000	-3.139182e-003	1.353353e-002
3.289394550250697e-001	4.771790e-001	1.407610e+000	-4.501152e-003	1.364792e-002
3.304008835964997e-001	4.773683e-001	1.405623e+000	-5.859345e-003	1.376213e-002
3.318623121679298e-001	4.776069e-001	1.403481e+000	-7.213763e-003	1.387615e-002
3.333237407393598e-001	4.778949e-001	1.401186e+000	-8.564405e-003	1.398998e-002
3.347851693107898e-001	4.782322e-001	1.398736e+000	-9.911270e-003	1.410362e-002
3.362465978822199e-001	4.786189e-001	1.396133e+000	-1.125436e-002	1.421708e-002
3.377080264536499e-001	4.790549e-001	1.393375e+000	-1.259367e-002	1.433036e-002
3.377180264536499e-001	4.790581e-001	1.393356e+000	-1.260282e-002	1.433113e-002
3.479580264536601e-001	4.834716e-001	1.369788e+000	-2.183028e-002	1.511744e-002
3.581980264536704e-001	4.902065e-001	1.338960e+000	-3.072186e-002	1.588827e-002
3.684380264536806e-001	4.991643e-001	1.301169e+000	-3.918139e-002	1.663956e-002
3.786780264536909e-001	5.102226e-001	1.256783e+000	-4.711723e-002	1.736746e-002
3.889180264537011e-001	5.232363e-001	1.206239e+000	-5.444325e-002	1.806833e-002
3.991580264537114e-001	5.380387e-001	1.150038e+000	-6.107971e-002	1.873882e-002
4.093980264537216e-001	5.544440e-001	1.088738e+000	-6.695411e-002	1.937585e-002
4.196380264537318e-001	5.722487e-001	1.022951e+000	-7.200195e-002	1.997671e-002
4.298780264537421e-001	5.912337e-001	9.533362e-001	-7.616740e-002	2.053902e-002
4.401180264537523e-001	6.111671e-001	8.805901e-001	-7.940388e-002	2.106080e-002
4.503580264537626e-001	6.318061e-001	8.054428e-001	-8.167457e-002	2.154048e-002
4.605980264537728e-001	6.528997e-001	7.286480e-001	-8.295278e-002	2.197690e-002
4.708380264537830e-001	6.741918e-001	6.509765e-001	-8.322223e-002	2.236935e-002
4.810780264537933e-001	6.954229e-001	5.732071e-001	-8.247720e-002	2.271755e-002
4.913180264538035e-001	7.163339e-001	4.961195e-001	-8.072267e-002	2.302166e-002
5.015580264538051e-001	7.366681e-001	4.204850e-001	-7.797414e-002	2.328230e-002
5.117980264537585e-001	7.561740e-001	3.470592e-001	-7.425760e-002	2.350050e-002
5.220380264537119e-001	7.746084e-001	2.765740e-001	-6.960917e-002	2.367773e-002
5.322780264536653e-001	7.917383e-001	2.097295e-001	-6.407475e-002	2.381587e-002
5.337394550250872e-001	7.940652e-001	2.005211e-001	-6.321528e-002	2.383251e-002
5.352008835965091e-001	7.963589e-001	1.914067e-001	-6.233951e-002	2.384841e-002
5.366623121679310e-001	7.986194e-001	1.823864e-001	-6.144744e-002	2.386360e-002
5.381237407393530e-001	8.008467e-001	1.734602e-001	-6.053907e-002	2.387806e-002
5.395851693107749e-001	8.030407e-001	1.646281e-001	-5.961439e-002	2.389180e-002
5.410465978821968e-001	8.052016e-001	1.558900e-001	-5.867341e-002	2.390481e-002
5.425080264536187e-001	8.073294e-001	1.472460e-001	-5.771613e-002	2.391709e-002
5.425180264536187e-001	8.073438e-001	1.471873e-001	-5.770953e-002	2.391717e-002
5.439794550250406e-001	8.094359e-001	1.386446e-001	-5.673645e-002	2.392876e-002
5.454408835964625e-001	8.114908e-001	1.302080e-001	-5.574846e-002	2.393967e-002
5.469023121678844e-001	8.135085e-001	1.218775e-001	-5.474555e-002	2.394992e-002
5.483637407393064e-001	8.154890e-001	1.136531e-001	-5.372773e-002	2.395949e-002
5.498251693107283e-001	8.174324e-001	1.055349e-001	-5.269499e-002	2.396840e-002
5.512865978821502e-001	8.193385e-001	9.752271e-002	-5.164733e-002	2.397665e-002
5.527480264535721e-001	8.212075e-001	8.961666e-002	-5.058475e-002	2.398422e-002
5.527580264535721e-001	8.212201e-001	8.956297e-002	-5.057744e-002	2.398427e-002
5.542194550249940e-001	8.230496e-001	8.176981e-002	-4.950055e-002	2.399120e-002
5.556808835964159e-001	8.248383e-001	7.409365e-002	-4.841030e-002	2.399753e-002
5.571423121678378e-001	8.265862e-001	6.653452e-002	-4.730666e-002	2.400325e-002
5.586037407392598e-001	8.282932e-001	5.909241e-002	-4.618966e-002	2.400837e-002
5.600651693106817e-001	8.299594e-001	5.176731e-002	-4.505928e-002	2.401288e-002
5.615265978821036e-001	8.315848e-001	4.455923e-002	-4.391553e-002	2.401679e-002
5.629880264535255e-001	8.331694e-001	3.746817e-002	-4.275841e-002	2.402010e-002
5.629980264535255e-001	8.331801e-001	3.742009e-002	-4.275045e-002	2.402012e-002
5.644594550249474e-001	8.347217e-001	3.045231e-002	-4.158065e-002	2.402285e-002
5.659208835963693e-001	8.362194e-001	2.361121e-002	-4.039915e-002	2.402504e-002
5.673823121677912e-001	8.376730e-001	1.689680e-002	-3.920597e-002	2.402670e-002
5.688437407392132e-001	8.390826e-001	1.030907e-002	-3.800110e-002	2.402782e-002
5.703051693106351e-001	8.404482e-001	3.848033e-003	-3.678454e-002	2.402841e-002
5.717665978820570e-001	8.417697e-001	-2.486322e-003	-3.555629e-002	2.402847e-002
5.732280264534789e-001	8.430472e-001	-8.693991e-003	-3.431635e-002	2.402799e-002
5.732380264534789e-001	8.430558e-001	-8.735996e-003	-3.430783e-002	2.402798e-002
5.746994550249008e-001	8.442874e-001	-1.481128e-002	-3.305698e-002	2.402700e-002
5.761608835963227e-001	8.454722e-001	-2.075156e-002	-3.179624e-002	2.402555e-002
5.776223121677446e-001	8.466101e-001	-2.655682e-002	-3.052562e-002	2.402365e-002
5.790837407391666e-001	8.477013e-001	-3.222707e-002	-2.924512e-002	2.402128e-002
5.805451693105885e-001	8.487457e-001	-3.776231e-002	-2.795473e-002	2.401846e-002
5.820065978820104e-001	8.497433e-001	-4.316254e-002	-2.665447e-002	2.401517e-002
5.834680264534323e-001	8.506941e-001	-4.842775e-002	-2.534431e-002	2.401142e-002
5.834780264534323e-001	8.507005e-001	-4.846328e-002	-2.533532e-002	2.401140e-002
5.849394550248542e-001	8.516028e-001	-5.358841e-002	-2.401614e-002	2.400722e-002
5.864008835962761e-001	8.524561e-001	-5.857163e-002	-2.268898e-002	2.400267e-002
