time	V(n002)	V(n002)-V(n003)	V(n003)
0.000000000000000e+000	1.000000e+000	1.000000e+000	0.000000e+000
9.999999717180685e-010	1.000000e+000	1.000000e+000	3.000000e-009
1.999999943436137e-009	1.000000e+000	1.000000e+000	6.000000e-009
4.793491864430790e-003	1.028670e+000	1.014363e+000	1.430736e-002
9.586981728861636e-003	1.057217e+000	1.028699e+000	2.851761e-002
1.438047159329248e-002	1.085641e+000	1.043010e+000	4.263073e-002
1.917396145772333e-002	1.113942e+000	1.057295e+000	5.664674e-002
2.396745132215417e-002	1.142120e+000	1.071554e+000	7.056563e-002
2.876094118658502e-002	1.170175e+000	1.085788e+000	8.438740e-002
3.355443105101585e-002	1.198107e+000	1.099995e+000	9.811206e-002
5.196220050564359e-002	1.304542e+000	1.154366e+000	1.501764e-001
7.036996996027133e-002	1.409287e+000	1.208354e+000	2.009328e-001
8.877773941489905e-002	1.512290e+000	1.261933e+000	2.503577e-001
1.255932783241545e-001	1.713027e+000	1.367789e+000	3.452384e-001
1.624088172334100e-001	1.906661e+000	1.471792e+000	4.348691e-001
1.992243561426655e-001	2.093102e+000	1.573800e+000	5.193013e-001
2.544476645065487e-001	2.359088e+000	1.722771e+000	6.363168e-001
3.096709728704319e-001	2.608423e+000	1.866490e+000	7.419335e-001
3.648942812343152e-001	2.840856e+000	2.004518e+000	8.363375e-001
4.201175895981984e-001	3.056157e+000	2.136435e+000	9.197221e-001
4.779705793127427e-001	3.263367e+000	2.268568e+000	9.947994e-001
5.358235690272871e-001	3.451071e+000	2.392160e+000	1.058911e+000
5.936765587418315e-001	3.619269e+000	2.507213e+000	1.112056e+000
6.515295484563758e-001	3.767961e+000	2.613727e+000	1.154234e+000
7.093825381709201e-001	3.897147e+000	2.711700e+000	1.185447e+000
7.672355278854646e-001	4.006827e+000	2.801133e+000	1.205693e+000
8.250885176000087e-001	4.097001e+000	2.882027e+000	1.214974e+000
8.434962870546364e-001	4.121534e+000	2.905481e+000	1.216053e+000
8.619040565092642e-001	4.144087e+000	2.927951e+000	1.216137e+000
8.803118259638919e-001	4.164664e+000	2.949428e+000	1.215236e+000
9.171273648731474e-001	4.199903e+000	2.989378e+000	1.210525e+000
9.539429037824029e-001	4.227282e+000	3.025276e+000	1.202005e+000
1.009166212146286e+000	4.253708e+000	3.071423e+000	1.182285e+000
1.045981751055541e+000	4.261638e+000	3.096993e+000	1.164645e+000
1.064389520510169e+000	4.262719e+000	3.108207e+000	1.154512e+000
1.082797289964797e+000	4.261888e+000	3.118366e+000	1.143521e+000
1.119612828874052e+000	4.254526e+000	3.135513e+000	1.119012e+000
1.138020598328680e+000	4.248013e+000	3.142494e+000	1.105519e+000
1.193243906692562e+000	4.217278e+000	3.157041e+000	1.060237e+000
1.248467215056445e+000	4.169987e+000	3.161963e+000	1.008023e+000
1.274764028563056e+000	4.141632e+000	3.160907e+000	9.807253e-001
1.301060842069667e+000	4.109752e+000	3.157675e+000	9.520769e-001
1.327357655576278e+000	4.074346e+000	3.152268e+000	9.220782e-001
1.353654469082889e+000	4.035414e+000	3.144685e+000	8.907291e-001
1.379951282589500e+000	3.992956e+000	3.134926e+000	8.580297e-001
1.406248096096111e+000	3.946972e+000	3.122992e+000	8.239798e-001
1.432544909602722e+000	3.897461e+000	3.108882e+000	7.885796e-001
1.453582360408010e+000	3.855456e+000	3.096039e+000	7.594162e-001
1.474619811213299e+000	3.811402e+000	3.081844e+000	7.295578e-001
1.495657262018588e+000	3.765301e+000	3.066296e+000	6.990046e-001
1.516694712823877e+000	3.717152e+000	3.049396e+000	6.677564e-001
1.537732163629165e+000	3.666956e+000	3.031143e+000	6.358132e-001
1.558769614434454e+000	3.614712e+000	3.011537e+000	6.031752e-001
1.579807065239743e+000	3.560420e+000	2.990578e+000	5.698422e-001
1.613992922798337e+000	3.467814e+000	2.953600e+000	5.142138e-001
1.648178780356931e+000	3.370600e+000	2.913300e+000	4.572996e-001
1.682364637915525e+000	3.268778e+000	2.869678e+000	3.990996e-001
1.716550495474119e+000	3.162348e+000	2.822734e+000	3.396139e-001
1.750736353032714e+000	3.051310e+000	2.772468e+000	2.788425e-001
1.784922210591308e+000	2.935664e+000	2.718879e+000	2.167853e-001
1.819108068149902e+000	2.815410e+000	2.661968e+000	1.534423e-001
1.855923607059157e+000	2.681803e+000	2.597355e+000	8.444812e-002
1.892739145968412e+000	2.543715e+000	2.529223e+000	1.449204e-002
1.911146915423040e+000	2.473058e+000	2.493865e+000	-2.080752e-002
1.947962454332295e+000	2.328656e+000	2.420627e+000	-9.197126e-002
1.987407674592212e+000	2.168850e+000	2.338166e+000	-1.693155e-001
2.026852894852129e+000	2.005548e+000	2.252416e+000	-2.468680e-001
2.066298115112046e+000	1.838749e+000	2.163377e+000	-3.246286e-001
2.105743335371963e+000	1.668452e+000	2.071050e+000	-4.025975e-001
2.145188555631879e+000	1.494659e+000	1.975433e+000	-4.807746e-001
2.184633775891796e+000	1.317368e+000	1.876528e+000	-5.591599e-001
2.224078996151713e+000	1.136581e+000	1.774334e+000	-6.377534e-001
2.255635172359646e+000	9.903720e-001	1.690658e+000	-7.002861e-001
2.287191348567580e+000	8.431604e-001	1.605515e+000	-7.623546e-001
2.318747524775513e+000	6.949460e-001	1.518905e+000	-8.239588e-001
2.350303700983447e+000	5.457286e-001	1.430828e+000	-8.850989e-001
2.381859877191380e+000	3.955083e-001	1.341283e+000	-9.457748e-001
2.413416053399314e+000	2.442851e-001	1.250272e+000	-1.005987e+000
2.444972229607247e+000	9.205902e-002	1.157793e+000	-1.065734e+000
2.463379999061875e+000	3.283300e-003	1.103438e+000	-1.100155e+000
2.489676812568486e+000	-1.239674e-001	1.025006e+000	-1.148973e+000
2.515973626075097e+000	-2.511276e-001	9.460021e-001	-1.197130e+000
2.542270439581709e+000	-3.781975e-001	8.664276e-001	-1.244625e+000
2.568567253088320e+000	-5.051770e-001	7.862822e-001	-1.291459e+000
2.594864066594931e+000	-6.320660e-001	7.055657e-001	-1.337632e+000
2.621160880101542e+000	-7.588647e-001	6.242783e-001	-1.383143e+000
2.647457693608153e+000	-8.855730e-001	5.424198e-001	-1.427993e+000
2.707940364673359e+000	-1.177403e+000	3.513916e-001	-1.528795e+000
2.768423035738565e+000	-1.463221e+000	1.608160e-001	-1.624037e+000
2.828905706803771e+000	-1.743027e+000	-2.930715e-002	-1.713720e+000
2.889388377868976e+000	-2.016822e+000	-2.189778e-001	-1.797844e+000
2.949871048934182e+000	-2.284604e+000	-4.081959e-001	-1.876408e+000
3.010353719999388e+000	-2.546375e+000	-5.969616e-001	-1.949413e+000
3.070836391064594e+000	-2.802133e+000	-7.852747e-001	-2.016859e+000
3.126059699428478e+000	-3.026515e+000	-9.543463e-001	-2.072168e+000
3.181283007792361e+000	-3.240597e+000	-1.119288e+000	-2.121309e+000
3.236506316156245e+000	-3.444382e+000	-1.280100e+000	-2.164282e+000
3.291729624520128e+000	-3.637868e+000	-1.436782e+000	-2.201086e+000
3.346952932884012e+000	-3.821056e+000	-1.589335e+000	-2.231721e+000
3.402176241247895e+000	-3.993945e+000	-1.737758e+000	-2.256187e+000
3.457399549611779e+000	-4.156536e+000	-1.882051e+000	-2.274484e+000
3.475807319066407e+000	-4.207565e+000	-1.928538e+000	-2.279027e+000
3.494215088521035e+000	-4.257169e+000	-1.974333e+000	-2.282836e+000
3.512622857975662e+000	-4.305346e+000	-2.019437e+000	-2.285909e+000
3.531030627430290e+000	-4.352098e+000	-2.063849e+000	-2.288249e+000
3.549438396884918e+000	-4.397423e+000	-2.107570e+000	-2.289853e+000
3.567846166339546e+000	-4.441322e+000	-2.150599e+000	-2.290723e+000
3.586253935794174e+000	-4.483794e+000	-2.192936e+000	-2.290858e+000
3.617810112002107e+000	-4.553231e+000	-2.263875e+000	-2.289356e+000
3.649366288210041e+000	-4.618085e+000	-2.332397e+000	-2.285688e+000
3.680922464417974e+000	-4.678356e+000	-2.398501e+000	-2.279855e+000
3.712478640625908e+000	-4.734044e+000	-2.462187e+000	-2.271857e+000
3.744034816833841e+000	-4.785150e+000	-2.523456e+000	-2.261694e+000
3.775590993041775e+000	-4.831672e+000	-2.582307e+000	-2.249365e+000
3.807147169249708e+000	-4.873612e+000	-2.638741e+000	-2.234872e+000
3.841333026808303e+000	-4.913599e+000	-2.696886e+000	-2.216712e+000
3.875518884366897e+000	-4.947856e+000	-2.751732e+000	-2.196123e+000
3.909704741925492e+000	-4.976383e+000	-2.803278e+000	-2.173105e+000
3.943890599484087e+000	-4.999180e+000	-2.851523e+000	-2.147657e+000
3.978076457042681e+000	-5.016247e+000	-2.896468e+000	-2.119779e+000
4.012262314601276e+000	-5.027584e+000	-2.938112e+000	-2.089472e+000
4.046448172159870e+000	-5.033192e+000	-2.976457e+000	-2.056735e+000
4.138487019433010e+000	-5.019277e+000	-3.061923e+000	-1.957354e+000
4.267341405615404e+000	-4.929406e+000	-3.137910e+000	-1.791496e+000
4.285749175070032e+000	-4.909903e+000	-3.144540e+000	-1.765363e+000
4.304156944524660e+000	-4.888774e+000	-3.150101e+000	-1.738673e+000
4.322564713979288e+000	-4.866019e+000	-3.154593e+000	-1.711426e+000
4.340972483433916e+000	-4.841637e+000	-3.158016e+000	-1.683621e+000
4.359380252888544e+000	-4.815629e+000	-3.160369e+000	-1.655260e+000
4.377788022343172e+000	-4.787994e+000	-3.161654e+000	-1.626341e+000
4.396195791797799e+000	-4.758734e+000	-3.161869e+000	-1.596865e+000
4.427751968005733e+000	-4.704741e+000	-3.159716e+000	-1.545025e+000
4.459308144213666e+000	-4.646267e+000	-3.154439e+000	-1.491828e+000
4.490864320421600e+000	-4.583311e+000	-3.146039e+000	-1.437272e+000
4.522420496629533e+000	-4.515873e+000	-3.134514e+000	-1.381358e+000
4.553976672837467e+000	-4.443953e+000	-3.119866e+000	-1.324087e+000
4.585532849045400e+000	-4.367552e+000	-3.102094e+000	-1.265457e+000
4.617089025253334e+000	-4.286668e+000	-3.081198e+000	-1.205470e+000
4.709127872526473e+000	-4.027407e+000	-3.002912e+000	-1.024495e+000
4.735424686033084e+000	-3.946875e+000	-2.975785e+000	-9.710896e-001
4.761721499539696e+000	-3.863785e+000	-2.946655e+000	-9.171302e-001
4.788018313046306e+000	-3.778138e+000	-2.915522e+000	-8.626165e-001
4.814315126552918e+000	-3.689934e+000	-2.882385e+000	-8.075484e-001
4.840611940059529e+000	-3.599172e+000	-2.847245e+000	-7.519261e-001
4.866908753566141e+000	-3.505852e+000	-2.810102e+000	-6.957494e-001
4.893205567072751e+000	-3.409975e+000	-2.770956e+000	-6.390184e-001
4.930021105982007e+000	-3.271549e+000	-2.712794e+000	-5.587553e-001
4.966836644891263e+000	-3.129223e+000	-2.651178e+000	-4.780460e-001
5.003652183800519e+000	-2.982998e+000	-2.586107e+000	-3.968904e-001
5.040467722709774e+000	-2.832872e+000	-2.517583e+000	-3.152886e-001
5.077283261619030e+000	-2.678846e+000	-2.445606e+000	-2.332406e-001
5.114098800528286e+000	-2.520920e+000	-2.370174e+000	-1.507465e-001
5.150914339437541e+000	-2.359094e+000	-2.291288e+000	-6.780604e-002
5.169322108892169e+000	-2.277166e+000	-2.250757e+000	-2.640874e-002
5.187729878346797e+000	-2.194544e+000	-2.209499e+000	1.495514e-002
5.206137647801425e+000	-2.111228e+000	-2.167514e+000	5.628560e-002
5.224545417256053e+000	-2.027219e+000	-2.124802e+000	9.758263e-002
5.242953186710681e+000	-1.942517e+000	-2.081363e+000	1.388462e-001
5.261360956165309e+000	-1.857121e+000	-2.037197e+000	1.800764e-001
5.279768725619936e+000	-1.771031e+000	-1.992304e+000	2.212732e-001
5.324473308581175e+000	-1.558632e+000	-1.879985e+000	3.213524e-001
5.369177891542415e+000	-1.344237e+000	-1.764504e+000	4.202673e-001
5.413882474503653e+000	-1.127844e+000	-1.645862e+000	5.180180e-001
5.458587057464893e+000	-9.094555e-001	-1.524060e+000	6.146044e-001
5.503291640426132e+000	-6.890697e-001	-1.399096e+000	7.100265e-001
5.547996223387371e+000	-4.666873e-001	-1.270972e+000	8.042844e-001
5.592700806348610e+000	-2.423081e-001	-1.139686e+000	8.973780e-001
5.613738257153899e+000	-1.369323e-001	-1.077321e+000	9.403886e-001
5.634775707959188e+000	-3.161836e-002	-1.014549e+000	9.829303e-001
5.655813158764476e+000	7.363357e-002	-9.513697e-001	1.025003e+000
5.676850609569766e+000	1.788235e-001	-8.877839e-001	1.066607e+000
5.697888060375055e+000	2.839515e-001	-8.237914e-001	1.107743e+000
5.718925511180344e+000	3.890176e-001	-7.593920e-001	1.148410e+000
5.739962961985633e+000	4.940217e-001	-6.945858e-001	1.188607e+000
5.792556588998855e+000	7.569101e-001	-5.303198e-001	1.287230e+000
5.845150216012078e+000	1.015917e+000	-3.657279e-001	1.381645e+000
5.897743843025300e+000	1.271042e+000	-2.008099e-001	1.471851e+000
5.950337470038523e+000	1.522285e+000	-3.556593e-002	1.557850e+000
6.002931097051745e+000	1.769646e+000	1.300041e-001	1.639642e+000
6.055524724064967e+000	2.013125e+000	2.959001e-001	1.717225e+000
6.108118351078190e+000	2.252723e+000	4.621221e-001	1.790601e+000
6.171230703494056e+000	2.532326e+000	6.603528e-001	1.871973e+000
6.234343055909924e+000	2.799307e+000	8.540786e-001	1.945229e+000
6.297455408325790e+000	3.053668e+000	1.043300e+000	2.010368e+000
6.360567760741658e+000	3.295408e+000	1.228016e+000	2.067392e+000
6.423680113157524e+000	3.524527e+000	1.408227e+000	2.116300e+000
6.486792465573392e+000	3.741025e+000	1.583934e+000	2.157091e+000
6.549904817989258e+000	3.944902e+000	1.755136e+000	2.189766e+000
6.576201631495869e+000	4.024395e+000	1.823797e+000	2.200598e+000
6.602498445002481e+000	4.100974e+000	1.891083e+000	2.209892e+000
6.628795258509092e+000	4.174641e+000	1.956994e+000	2.217647e+000
6.655092072015703e+000	4.245395e+000	2.021531e+000	2.223864e+000
6.681388885522314e+000	4.313236e+000	2.084693e+000	2.228543e+000
6.707685699028926e+000	4.378164e+000	2.146480e+000	2.231683e+000
6.733982512535537e+000	4.440179e+000	2.206893e+000	2.233286e+000
6.749760600639504e+000	4.475864e+000	2.242366e+000	2.233498e+000
6.765538688743471e+000	4.510413e+000	2.277259e+000	2.233154e+000
6.781316776847437e+000	4.543826e+000	2.311572e+000	2.232253e+000
6.797094864951403e+000	4.576103e+000	2.345307e+000	2.230796e+000
6.812872953055370e+000	4.607244e+000	2.378461e+000	2.228782e+000
6.828651041159337e+000	4.637248e+000	2.411036e+000	2.226212e+000
6.844429129263304e+000	4.666117e+000	2.443032e+000	2.223085e+000
6.889133712224543e+000	4.741773e+000	2.530668e+000	2.211105e+000
6.933838295185782e+000	4.807676e+000	2.612869e+000	2.194807e+000
6.978542878147021e+000	4.863824e+000	2.689634e+000	2.174190e+000
7.023247461108261e+000	4.910219e+000	2.760965e+000	2.149254e+000
7.067952044069499e+000	4.946860e+000	2.826860e+000	2.120000e+000
7.112656627030739e+000	4.973748e+000	2.887320e+000	2.086427e+000
7.157361209991977e+000	4.990881e+000	2.942345e+000	2.048536e+000
7.212584518355861e+000	4.998009e+000	3.001763e+000	1.996246e+000
7.230992287810489e+000	4.996992e+000	3.019556e+000	1.977435e+000
7.249400057265117e+000	4.994284e+000	3.036313e+000	1.957971e+000
7.267807826719745e+000	4.989887e+000	3.052034e+000	1.937853e+000
7.286215596174372e+000	4.983799e+000	3.066718e+000	1.917081e+000
7.304623365629000e+000	4.976022e+000	3.080366e+000	1.895655e+000
7.323031135083628e+000	4.966554e+000	3.092978e+000	1.873576e+000
7.341438904538256e+000	4.955396e+000	3.104553e+000	1.850842e+000
7.367735718044867e+000	4.936503e+000	3.119263e+000	1.817241e+000
7.394032531551479e+000	4.914241e+000	3.131798e+000	1.782443e+000
7.420329345058089e+000	4.888609e+000	3.142159e+000	1.746450e+000
7.446626158564701e+000	4.859608e+000	3.150346e+000	1.709262e+000
7.472922972071312e+000	4.827236e+000	3.156359e+000	1.670877e+000
7.499219785577924e+000	4.791495e+000	3.160198e+000	1.631298e+000
7.525516599084535e+000	4.752384e+000	3.161862e+000	1.590522e+000
7.549183731240484e+000	4.714358e+000	3.161473e+000	1.552885e+000
7.572850863396435e+000	4.673751e+000	3.159319e+000	1.514432e+000
7.596517995552385e+000	4.630563e+000	3.155400e+000	1.475163e+000
7.620185127708335e+000	4.584795e+000	3.149716e+000	1.435079e+000
7.643852259864285e+000	4.536446e+000	3.142268e+000	1.394179e+000
7.667519392020235e+000	4.485517e+000	3.133054e+000	1.352463e+000
7.691186524176185e+000	4.432007e+000	3.122076e+000	1.309932e+000
7.714853656332135e+000	4.375993e+000	3.109334e+000	1.266659e+000
7.738520788488086e+000	4.317613e+000	3.094874e+000	1.222739e+000
7.762187920644036e+000	4.256866e+000	3.078695e+000	1.178171e+000
7.785855052799986e+000	4.193753e+000	3.060798e+000	1.132955e+000
7.809522184955935e+000	4.128273e+000	3.041182e+000	1.087091e+000
7.833189317111886e+000	4.060427e+000	3.019848e+000	1.040579e+000
7.856856449267836e+000	3.990215e+000	2.996795e+000	9.934201e-001
7.885782944125109e+000	3.901276e+000	2.966297e+000	9.349787e-001
7.914709438982380e+000	3.809271e+000	2.933391e+000	8.758790e-001
7.943635933839653e+000	3.714200e+000	2.898079e+000	8.161212e-001
7.972562428696925e+000	3.616065e+000	2.860360e+000	7.557052e-001
8.001488923554197e+000	3.514864e+000	2.820233e+000	6.946310e-001
8.030415418411470e+000	3.410598e+000	2.777699e+000	6.328985e-001
8.059341913268742e+000	3.303267e+000	2.732759e+000	5.705079e-001
8.093527770827336e+000	3.172703e+000	2.676612e+000	4.960906e-001
8.127713628385932e+000	3.038833e+000	2.617521e+000	4.213120e-001
8.161899485944526e+000	2.901656e+000	2.555484e+000	3.461721e-001
8.196085343503121e+000	2.761173e+000	2.490503e+000	2.706709e-001
8.230271201061715e+000	2.617384e+000	2.422576e+000	1.948084e-001
8.264457058620311e+000	2.470289e+000	2.351705e+000	1.185845e-001
8.298642916178904e+000	2.319887e+000	2.277888e+000	4.199933e-002
8.335458455088160e+000	2.155336e+000	2.195628e+000	-4.029215e-002
8.372273993997416e+000	1.987273e+000	2.110080e+000	-1.228066e-001
8.409089532906672e+000	1.817102e+000	2.021981e+000	-2.048795e-001
8.445905071815927e+000	1.644820e+000	1.931331e+000	-2.865108e-001
8.482720610725183e+000	1.470430e+000	1.838130e+000	-3.677006e-001
8.519536149634439e+000	1.293930e+000	1.742379e+000	-4.484487e-001
8.556351688543694e+000	1.115321e+000	1.644076e+000	-5.287553e-001
8.593167227452950e+000	9.346023e-001	1.543222e+000	-6.086202e-001
8.619464040959562e+000	8.049264e-001	1.469994e+000	-6.650674e-001
8.645760854466172e+000	6.749189e-001	1.395879e+000	-7.209596e-001
8.672057667972783e+000	5.445798e-001	1.320877e+000	-7.762970e-001
8.698354481479395e+000	4.139091e-001	1.244989e+000	-8.310794e-001
8.724651294986007e+000	2.829067e-001	1.168214e+000	-8.853069e-001
8.750948108492617e+000	1.515727e-001	1.090552e+000	-9.389796e-001
8.777244921999229e+000	1.990708e-002	1.012004e+000	-9.920973e-001
8.803541735505840e+000	-1.117729e-001	9.327493e-001	-1.044522e+000
8.829838549012450e+000	-2.431495e-001	8.529882e-001	-1.096138e+000
8.856135362519062e+000	-3.742227e-001	7.727210e-001	-1.146944e+000
8.882432176025674e+000	-5.049925e-001	6.919478e-001	-1.196940e+000
8.908728989532285e+000	-6.354590e-001	6.106685e-001	-1.246127e+000
8.935025803038895e+000	-7.656220e-001	5.288831e-001	-1.294505e+000
8.961322616545507e+000	-8.954816e-001	4.465917e-001	-1.342073e+000
9.024434968961375e+000	-1.206825e+000	2.462992e-001	-1.453124e+000
9.087547321377240e+000	-1.510433e+000	4.699820e-002	-1.557431e+000
9.150659673793108e+000	-1.806306e+000	-1.513112e-001	-1.654995e+000
9.213772026208975e+000	-2.094444e+000	-3.486290e-001	-1.745815e+000
9.276884378624843e+000	-2.374847e+000	-5.449553e-001	-1.829892e+000
9.339996731040708e+000	-2.647516e+000	-7.402899e-001	-1.907226e+000
9.403109083456576e+000	-2.912449e+000	-9.346330e-001	-1.977816e+000
9.455702710469797e+000	-3.123326e+000	-1.093162e+000	-2.030164e+000
9.508296337483021e+000	-3.324258e+000	-1.247632e+000	-2.076626e+000
9.560889964496242e+000	-3.515246e+000	-1.398045e+000	-2.117201e+000
9.613483591509466e+000	-3.696290e+000	-1.544400e+000	-2.151889e+000
9.666077218522688e+000	-3.867389e+000	-1.686698e+000	-2.180691e+000
9.718670845535911e+000	-4.028543e+000	-1.824937e+000	-2.203606e+000
9.771264472549133e+000	-4.179753e+000	-1.959119e+000	-2.220635e+000
9.789672242003761e+000	-4.229577e+000	-2.004507e+000	-2.225070e+000
9.808080011458388e+000	-4.277928e+000	-2.049178e+000	-2.228749e+000
9.826487780913016e+000	-4.324806e+000	-2.093134e+000	-2.231672e+000
9.844895550367644e+000	-4.370212e+000	-2.136373e+000	-2.233839e+000
9.863303319822272e+000	-4.414145e+000	-2.178895e+000	-2.235250e+000
9.881711089276900e+000	-4.456606e+000	-2.220702e+000	-2.235904e+000
9.900118858731528e+000	-4.497594e+000	-2.261791e+000	-2.235802e+000
9.934304716290122e+000	-4.569761e+000	-2.336186e+000	-2.233575e+000
9.968490573848717e+000	-4.636413e+000	-2.407652e+000	-2.228761e+000
1.000267643140731e+001	-4.697550e+000	-2.476190e+000	-2.221360e+000
1.003686228896591e+001	-4.753171e+000	-2.541799e+000	-2.211372e+000
1.007104814652450e+001	-4.803277e+000	-2.604479e+000	-2.198797e+000
1.010523400408310e+001	-4.847867e+000	-2.664231e+000	-2.183636e+000
