time	V(n001)	V(n002)	V(n003)	V(n004)	I(L1)	I(L2)	I(R1)	I(R2)	I(R3)	I(R4)
0.000000000000000e+000	1.000000e+000	0.000000e+000	0.000000e+000	0.000000e+000	1.000000e-012	0.000000e+000	1.000000e+000	0.000000e+000	0.000000e+000	0.000000e+000
9.999999717180685e-010	8.125000e-001	8.339583e-011	-1.875000e-001	8.339583e-011	7.508125e-010	-2.501875e-010	8.125000e-001	1.667917e-010	-5.625000e-001	3.335833e-010
1.999999943436137e-009	7.500000e-001	1.667500e-010	-2.500000e-001	1.667500e-010	1.500750e-009	-5.002500e-010	7.500000e-001	3.335000e-010	-7.500000e-001	6.670000e-010
2.396746789358228e-003	7.483529e-001	2.008940e-004	-2.498492e-001	1.982553e-004	1.794097e-003	-5.992873e-004	7.483529e-001	4.017881e-004	-7.495477e-001	7.930214e-004
4.793491578716512e-003	7.467068e-001	4.033270e-004	-2.496972e-001	3.945239e-004	3.583417e-003	-1.198668e-003	7.467068e-001	8.066539e-004	-7.490915e-001	1.578095e-003
7.190236368074796e-003	7.450616e-001	6.072990e-004	-2.495438e-001	5.888057e-004	5.367963e-003	-1.798142e-003	7.450616e-001	1.214598e-003	-7.486314e-001	2.355223e-003
9.586981157433080e-003	7.434174e-001	8.128101e-004	-2.493891e-001	7.811009e-004	7.147735e-003	-2.397711e-003	7.434174e-001	1.625620e-003	-7.481674e-001	3.124404e-003
1.198372594679137e-002	7.417741e-001	1.019860e-003	-2.492332e-001	9.714095e-004	8.922732e-003	-2.997373e-003	7.417741e-001	2.039721e-003	-7.476995e-001	3.885638e-003
1.438047073614965e-002	7.401318e-001	1.228450e-003	-2.490759e-001	1.159731e-003	1.069295e-002	-3.597129e-003	7.401318e-001	2.456899e-003	-7.472277e-001	4.638925e-003
1.677721552550793e-002	7.384905e-001	1.438578e-003	-2.489173e-001	1.346067e-003	1.245840e-002	-4.196980e-003	7.384905e-001	2.877156e-003	-7.467519e-001	5.384266e-003
2.654284052550793e-002	7.318100e-001	2.305498e-003	-2.482617e-001	2.091048e-003	1.961657e-002	-6.641380e-003	7.318100e-001	4.610996e-003	-7.447852e-001	8.364190e-003
3.630846552550793e-002	7.251444e-001	3.194137e-003	-2.475872e-001	2.807222e-003	2.670352e-002	-9.086357e-003	7.251444e-001	6.388275e-003	-7.427616e-001	1.122889e-002
4.607409052550793e-002	7.184944e-001	4.104627e-003	-2.468932e-001	3.493968e-003	3.371660e-002	-1.153148e-002	7.184944e-001	8.209254e-003	-7.406795e-001	1.397587e-002
5.583971552550793e-002	7.118603e-001	5.036274e-003	-2.461799e-001	4.151736e-003	4.065576e-002	-1.397627e-002	7.118603e-001	1.007255e-002	-7.385398e-001	1.660694e-002
6.560534052550793e-002	7.052425e-001	5.988398e-003	-2.454477e-001	4.780972e-003	4.752095e-002	-1.642026e-002	7.052425e-001	1.197680e-002	-7.363431e-001	1.912389e-002
7.537096552550793e-002	6.986413e-001	6.960324e-003	-2.446968e-001	5.382119e-003	5.431212e-002	-1.886300e-002	6.986413e-001	1.392065e-002	-7.340904e-001	2.152848e-002
9.490221552550793e-002	6.854899e-001	8.960939e-003	-2.431398e-001	6.501899e-003	6.767236e-002	-2.374289e-002	6.854899e-001	1.792188e-002	-7.294194e-001	2.600760e-002
1.144334655255079e-001	6.724085e-001	1.103291e-002	-2.415108e-001	7.514543e-003	8.073638e-002	-2.861239e-002	6.724085e-001	2.206582e-002	-7.245325e-001	3.005817e-002
1.339647155255079e-001	6.593996e-001	1.317118e-002	-2.398119e-001	8.423459e-003	9.350424e-002	-3.346805e-002	6.593996e-001	2.634235e-002	-7.194358e-001	3.369384e-002
1.534959655255079e-001	6.464656e-001	1.537081e-002	-2.380451e-001	9.231994e-003	1.059761e-001	-3.830654e-002	6.464656e-001	3.074162e-002	-7.141352e-001	3.692798e-002
1.827928405255079e-001	6.272100e-001	1.877487e-002	-2.352716e-001	1.026376e-002	1.241298e-001	-4.552503e-002	6.272100e-001	3.754973e-002	-7.058147e-001	4.105505e-002
2.120897155255079e-001	6.081356e-001	2.229064e-002	-2.323562e-001	1.108792e-002	1.416201e-001	-5.268711e-002	6.081356e-001	4.458129e-002	-6.970686e-001	4.435168e-002
2.413865905255079e-001	5.892500e-001	2.590319e-002	-2.293055e-001	1.171503e-002	1.584493e-001	-5.978282e-002	5.892500e-001	5.180638e-002	-6.879165e-001	4.686012e-002
2.706834655255079e-001	5.705601e-001	2.959822e-002	-2.261260e-001	1.215537e-002	1.746206e-001	-6.680265e-002	5.705601e-001	5.919644e-002	-6.783780e-001	4.862148e-002
2.999803405255079e-001	5.520729e-001	3.336206e-002	-2.228242e-001	1.241893e-002	1.901375e-001	-7.373762e-002	5.520729e-001	6.672412e-002	-6.684728e-001	4.967572e-002
3.292772155255079e-001	5.337950e-001	3.718167e-002	-2.194067e-001	1.251542e-002	2.050042e-001	-8.057920e-002	5.337950e-001	7.436334e-002	-6.582201e-001	5.006169e-002
3.585740905255079e-001	5.157328e-001	4.104461e-002	-2.158797e-001	1.245428e-002	2.192257e-001	-8.731933e-002	5.157328e-001	8.208922e-002	-6.476392e-001	4.981712e-002
3.878709655255079e-001	4.978924e-001	4.493901e-002	-2.122497e-001	1.224467e-002	2.328071e-001	-9.395044e-002	4.978924e-001	8.987802e-002	-6.367491e-001	4.897866e-002
4.171678405255079e-001	4.802674e-001	4.887705e-002	-2.085079e-001	1.187556e-002	2.457358e-001	-1.004794e-001	4.802674e-001	9.775410e-002	-6.255237e-001	4.750222e-002
4.464647155255079e-001	4.628878e-001	5.280061e-002	-2.046905e-001	1.139563e-002	2.580549e-001	-1.068711e-001	4.628878e-001	1.056012e-001	-6.140716e-001	4.558252e-002
4.757615905255079e-001	4.457538e-001	5.670970e-002	-2.007976e-001	1.080489e-002	2.697644e-001	-1.131254e-001	4.457538e-001	1.134194e-001	-6.023927e-001	4.321957e-002
5.050584655255079e-001	4.288652e-001	6.060431e-002	-1.968291e-001	1.010334e-002	2.808644e-001	-1.192424e-001	4.288652e-001	1.212086e-001	-5.904871e-001	4.041335e-002
5.343553405255079e-001	4.122221e-001	6.448444e-002	-1.927849e-001	9.290971e-003	2.913548e-001	-1.252220e-001	4.122221e-001	1.289689e-001	-5.783548e-001	3.716388e-002
5.636522155255079e-001	3.958244e-001	6.835009e-002	-1.886653e-001	8.367790e-003	3.012357e-001	-1.310643e-001	3.958244e-001	1.367002e-001	-5.659958e-001	3.347116e-002
5.929490905255079e-001	3.796723e-001	7.220127e-002	-1.844700e-001	7.333794e-003	3.105069e-001	-1.367692e-001	3.796723e-001	1.444025e-001	-5.534101e-001	2.933517e-002
6.222459655255079e-001	3.637923e-001	7.598611e-002	-1.802342e-001	6.234545e-003	3.192169e-001	-1.423065e-001	3.637923e-001	1.519722e-001	-5.407027e-001	2.493818e-002
6.515428405255079e-001	3.481767e-001	7.971970e-002	-1.759488e-001	5.057565e-003	3.273551e-001	-1.476855e-001	3.481767e-001	1.594394e-001	-5.278463e-001	2.023026e-002
6.808397155255079e-001	3.328286e-001	8.339527e-002	-1.716190e-001	3.809487e-003	3.349310e-001	-1.529025e-001	3.328286e-001	1.667905e-001	-5.148571e-001	1.523795e-002
7.101365905255079e-001	3.177514e-001	8.700645e-002	-1.672504e-001	2.496709e-003	3.419542e-001	-1.579545e-001	3.177514e-001	1.740129e-001	-5.017511e-001	9.986835e-003
7.296678405255079e-001	3.078517e-001	8.937521e-002	-1.643189e-001	1.588635e-003	3.463342e-001	-1.612293e-001	3.078517e-001	1.787504e-001	-4.929567e-001	6.354539e-003
7.394334655255079e-001	3.029478e-001	9.054734e-002	-1.628480e-001	1.125400e-003	3.484347e-001	-1.628384e-001	3.029478e-001	1.810947e-001	-4.885441e-001	4.501602e-003
7.491990905255079e-001	2.980745e-001	9.171104e-002	-1.613740e-001	6.563253e-004	3.504761e-001	-1.644287e-001	2.980745e-001	1.834221e-001	-4.841219e-001	2.625301e-003
7.589647155255079e-001	2.932320e-001	9.286614e-002	-1.598969e-001	1.816242e-004	3.524586e-001	-1.659998e-001	2.932320e-001	1.857323e-001	-4.796908e-001	7.264969e-004
7.687303405255079e-001	2.884204e-001	9.401241e-002	-1.584171e-001	-2.984907e-004	3.543828e-001	-1.675519e-001	2.884204e-001	1.880248e-001	-4.752512e-001	-1.193963e-003
7.784959655255079e-001	2.836397e-001	9.514969e-002	-1.569346e-001	-7.838100e-004	3.562489e-001	-1.690848e-001	2.836397e-001	1.902994e-001	-4.708039e-001	-3.135240e-003
7.980272155255079e-001	2.741715e-001	9.739652e-002	-1.539625e-001	-1.769238e-003	3.598088e-001	-1.720927e-001	2.741715e-001	1.947930e-001	-4.618876e-001	-7.076951e-003
8.273240905255079e-001	2.602033e-001	1.006950e-001	-1.494893e-001	-3.281330e-003	3.647234e-001	-1.764588e-001	2.602033e-001	2.013899e-001	-4.484679e-001	-1.312532e-002
8.566209655255079e-001	2.465150e-001	1.039112e-001	-1.449913e-001	-4.840920e-003	3.691090e-001	-1.806503e-001	2.465150e-001	2.078225e-001	-4.349738e-001	-1.936368e-002
8.859178405255079e-001	2.331134e-001	1.070252e-001	-1.404948e-001	-6.419835e-003	3.730334e-001	-1.846624e-001	2.331134e-001	2.140504e-001	-4.214845e-001	-2.567934e-002
9.152147155255079e-001	2.199985e-001	1.100369e-001	-1.360000e-001	-8.018077e-003	3.764966e-001	-1.884951e-001	2.199985e-001	2.200738e-001	-4.079999e-001	-3.207231e-002
9.445115905255079e-001	2.071701e-001	1.129463e-001	-1.315067e-001	-9.635645e-003	3.794985e-001	-1.921485e-001	2.071701e-001	2.258926e-001	-3.945201e-001	-3.854258e-002
9.738084655255079e-001	1.946284e-001	1.157534e-001	-1.270150e-001	-1.127254e-002	3.820391e-001	-1.956225e-001	1.946284e-001	2.315068e-001	-3.810450e-001	-4.509016e-002
1.003105340525508e+000	1.823732e-001	1.184582e-001	-1.225248e-001	-1.292876e-002	3.841185e-001	-1.989172e-001	1.823732e-001	2.369164e-001	-3.675746e-001	-5.171504e-002
1.032402215525508e+000	1.704047e-001	1.210607e-001	-1.180363e-001	-1.460431e-002	3.857367e-001	-2.020325e-001	1.704047e-001	2.421214e-001	-3.541089e-001	-5.841723e-002
1.084020519096937e+000	1.500365e-001	1.253702e-001	-1.101444e-001	-1.758591e-002	3.874600e-001	-2.070632e-001	1.500365e-001	2.507404e-001	-3.304333e-001	-7.034362e-002
1.135638822668365e+000	1.305506e-001	1.293140e-001	-1.023659e-001	-2.052019e-002	3.881030e-001	-2.115558e-001	1.305506e-001	2.586279e-001	-3.070978e-001	-8.208075e-002
1.187257126239794e+000	1.119470e-001	1.328919e-001	-9.470076e-002	-2.340716e-002	3.876658e-001	-2.155105e-001	1.119470e-001	2.657839e-001	-2.841023e-001	-9.362863e-002
1.238875429811222e+000	9.422580e-002	1.361041e-001	-8.714895e-002	-2.624681e-002	3.861482e-001	-2.189272e-001	9.422580e-002	2.722083e-001	-2.614468e-001	-1.049872e-001
1.290493733382651e+000	7.738692e-002	1.389506e-001	-7.971049e-002	-2.903915e-002	3.835503e-001	-2.218058e-001	7.738692e-002	2.779011e-001	-2.391314e-001	-1.161566e-001
1.342112036954080e+000	6.143037e-002	1.414312e-001	-7.238538e-002	-3.178418e-002	3.798722e-001	-2.241465e-001	6.143037e-002	2.828624e-001	-2.171561e-001	-1.271367e-001
1.393730340525508e+000	4.635617e-002	1.435461e-001	-6.517361e-002	-3.448189e-002	3.751138e-001	-2.259491e-001	4.635617e-002	2.870922e-001	-1.955208e-001	-1.379275e-001
1.420237036954079e+000	3.894257e-002	1.444858e-001	-6.155076e-002	-3.581548e-002	3.723955e-001	-2.266858e-001	3.894257e-002	2.889716e-001	-1.846523e-001	-1.432619e-001
1.446743733382651e+000	3.174702e-002	1.453318e-001	-5.797684e-002	-3.712003e-002	3.694808e-001	-2.272972e-001	3.174702e-002	2.906636e-001	-1.739305e-001	-1.484801e-001
1.473250429811222e+000	2.476952e-002	1.460841e-001	-5.445187e-002	-3.839553e-002	3.663695e-001	-2.277835e-001	2.476952e-002	2.921683e-001	-1.633556e-001	-1.535821e-001
1.499757126239794e+000	1.801006e-002	1.467427e-001	-5.097583e-002	-3.964200e-002	3.630618e-001	-2.281444e-001	1.801006e-002	2.934855e-001	-1.529275e-001	-1.585680e-001
1.526263822668365e+000	1.146866e-002	1.473076e-001	-4.754874e-002	-4.085942e-002	3.595577e-001	-2.283801e-001	1.146866e-002	2.946153e-001	-1.426462e-001	-1.634377e-001
1.552770519096937e+000	5.145314e-003	1.477788e-001	-4.417059e-002	-4.204781e-002	3.558571e-001	-2.284906e-001	5.145314e-003	2.955577e-001	-1.325118e-001	-1.681912e-001
1.579277215525508e+000	-9.599852e-004	1.481563e-001	-4.084137e-002	-4.320715e-002	3.519599e-001	-2.284758e-001	-9.599852e-004	2.963127e-001	-1.225241e-001	-1.728286e-001
1.589042840525508e+000	-3.157936e-003	1.482735e-001	-3.962950e-002	-4.362513e-002	3.504890e-001	-2.284425e-001	-3.157936e-003	2.965470e-001	-1.188885e-001	-1.745005e-001
1.598808465525508e+000	-5.327403e-003	1.483784e-001	-3.842495e-002	-4.403865e-002	3.489957e-001	-2.283934e-001	-5.327403e-003	2.967569e-001	-1.152749e-001	-1.761546e-001
1.618339715525508e+000	-9.581351e-003	1.485520e-001	-3.603801e-002	-4.485215e-002	3.459434e-001	-2.282480e-001	-9.581351e-003	2.971040e-001	-1.081140e-001	-1.794086e-001
1.647636590525508e+000	-1.575159e-002	1.487225e-001	-3.251380e-002	-4.603802e-002	3.412068e-001	-2.279138e-001	-1.575159e-002	2.974451e-001	-9.754141e-002	-1.841521e-001
1.676933465525508e+000	-2.167191e-002	1.487869e-001	-2.905821e-002	-4.718179e-002	3.362899e-001	-2.274433e-001	-2.167191e-002	2.975737e-001	-8.717465e-002	-1.887272e-001
1.707625429811222e+000	-2.759915e-002	1.487361e-001	-2.551054e-002	-4.833537e-002	3.309286e-001	-2.267978e-001	-2.759915e-002	2.974723e-001	-7.653163e-002	-1.933415e-001
1.738317394096937e+000	-3.327038e-002	1.485793e-001	-2.204343e-002	-4.943949e-002	3.254206e-001	-2.260199e-001	-3.327038e-002	2.971586e-001	-6.613030e-002	-1.977580e-001
1.769009358382651e+000	-3.868558e-002	1.483164e-001	-1.865688e-002	-5.049415e-002	3.197660e-001	-2.251098e-001	-3.868558e-002	2.966328e-001	-5.597065e-002	-2.019766e-001
1.799701322668365e+000	-4.384477e-002	1.479474e-001	-1.535089e-002	-5.149933e-002	3.139647e-001	-2.240672e-001	-4.384477e-002	2.958948e-001	-4.605268e-002	-2.059973e-001
1.830393286954079e+000	-4.874793e-002	1.474723e-001	-1.212547e-002	-5.245506e-002	3.080167e-001	-2.228924e-001	-4.874793e-002	2.949446e-001	-3.637640e-002	-2.098202e-001
1.861085251239794e+000	-5.339508e-002	1.468911e-001	-8.980602e-003	-5.336132e-002	3.019221e-001	-2.215852e-001	-5.339508e-002	2.937821e-001	-2.694180e-002	-2.134453e-001
1.891777215525508e+000	-5.778621e-002	1.462038e-001	-5.916297e-003	-5.421811e-002	2.956809e-001	-2.201458e-001	-5.778621e-002	2.924075e-001	-1.774889e-002	-2.168724e-001
1.901542840525508e+000	-5.913618e-002	1.459667e-001	-4.959437e-003	-5.447972e-002	2.936805e-001	-2.196660e-001	-5.913618e-002	2.919334e-001	-1.487831e-002	-2.179189e-001
1.911308465525508e+000	-6.046195e-002	1.457199e-001	-4.011028e-003	-5.473617e-002	2.916694e-001	-2.191744e-001	-6.046195e-002	2.914397e-001	-1.203308e-002	-2.189447e-001
1.921074090525508e+000	-6.176367e-002	1.454634e-001	-3.071083e-003	-5.498749e-002	2.896479e-001	-2.186710e-001	-6.176367e-002	2.909269e-001	-9.213248e-003	-2.199500e-001
1.940605340525508e+000	-6.429553e-002	1.449220e-001	-1.216649e-003	-5.547465e-002	2.855753e-001	-2.176298e-001	-6.429553e-002	2.898441e-001	-3.649947e-003	-2.218986e-001
1.950370965525508e+000	-6.552599e-002	1.446373e-001	-3.021869e-004	-5.571050e-002	2.835248e-001	-2.170922e-001	-6.552599e-002	2.892746e-001	-9.065607e-004	-2.228420e-001
1.960136590525508e+000	-6.673299e-002	1.443433e-001	6.037562e-004	-5.594120e-002	2.814652e-001	-2.165435e-001	-6.673299e-002	2.886865e-001	1.811269e-003	-2.237648e-001
1.969902215525508e+000	-6.791669e-002	1.440400e-001	1.501169e-003	-5.616673e-002	2.793969e-001	-2.159837e-001	-6.791669e-002	2.880801e-001	4.503508e-003	-2.246669e-001
1.989433465525508e+000	-7.021481e-002	1.434065e-001	3.270368e-003	-5.660234e-002	2.752353e-001	-2.148316e-001	-7.021481e-002	2.868131e-001	9.811103e-003	-2.264094e-001
2.018730340525508e+000	-7.349107e-002	1.423898e-001	5.859978e-003	-5.721714e-002	2.689351e-001	-2.130240e-001	-7.349107e-002	2.847797e-001	1.757994e-002	-2.288685e-001
2.094065161954080e+000	-8.081669e-002	1.393143e-001	1.214686e-002	-5.856312e-002	2.521904e-001	-2.078143e-001	-8.081669e-002	2.786286e-001	3.644057e-002	-2.342525e-001
2.169399983382651e+000	-8.706745e-002	1.358832e-001	1.793870e-002	-5.962878e-002	2.354579e-001	-2.022065e-001	-8.706745e-002	2.717665e-001	5.381609e-002	-2.385151e-001
2.244734804811222e+000	-9.224335e-002	1.320967e-001	2.323550e-002	-6.041412e-002	2.187375e-001	-1.962006e-001	-9.224335e-002	2.641933e-001	6.970650e-002	-2.416565e-001
2.320069626239794e+000	-9.634439e-002	1.279546e-001	2.803726e-002	-6.091914e-002	2.020292e-001	-1.897966e-001	-9.634439e-002	2.559091e-001	8.411179e-002	-2.436766e-001
2.395404447668365e+000	-9.937058e-002	1.234570e-001	3.234399e-002	-6.114383e-002	1.853331e-001	-1.829945e-001	-9.937058e-002	2.469139e-001	9.703198e-002	-2.445753e-001
2.470739269096937e+000	-1.013219e-001	1.186038e-001	3.615568e-002	-6.108821e-002	1.686492e-001	-1.757943e-001	-1.013219e-001	2.372077e-001	1.084670e-001	-2.443528e-001
2.546074090525508e+000	-1.021984e-001	1.133952e-001	3.947233e-002	-6.075225e-002	1.519774e-001	-1.681961e-001	-1.021984e-001	2.267904e-001	1.184170e-001	-2.430090e-001
2.583741501239794e+000	-1.023960e-001	1.107557e-001	4.096524e-002	-6.050276e-002	1.438756e-001	-1.643753e-001	-1.023960e-001	2.215113e-001	1.228957e-001	-2.420110e-001
2.621408911954080e+000	-1.024199e-001	1.080831e-001	4.235201e-002	-6.020059e-002	1.358899e-001	-1.605260e-001	-1.024199e-001	2.161662e-001	1.270560e-001	-2.408023e-001
2.659076322668365e+000	-1.022701e-001	1.053775e-001	4.363266e-002	-5.984574e-002	1.280202e-001	-1.566481e-001	-1.022701e-001	2.107551e-001	1.308980e-001	-2.393830e-001
2.696743733382651e+000	-1.019466e-001	1.026390e-001	4.480717e-002	-5.943822e-002	1.202666e-001	-1.527415e-001	-1.019466e-001	2.052779e-001	1.344215e-001	-2.377529e-001
2.734411144096937e+000	-1.014493e-001	9.986738e-002	4.587555e-002	-5.897802e-002	1.126291e-001	-1.488064e-001	-1.014493e-001	1.997348e-001	1.376267e-001	-2.359121e-001
2.772078554811222e+000	-1.007784e-001	9.706279e-002	4.683781e-002	-5.846515e-002	1.051076e-001	-1.448427e-001	-1.007784e-001	1.941256e-001	1.405134e-001	-2.338606e-001
2.809745965525508e+000	-9.993373e-002	9.422518e-002	4.769393e-002	-5.789961e-002	9.770228e-002	-1.408503e-001	-9.993373e-002	1.884504e-001	1.430818e-001	-2.315984e-001
2.829277215525508e+000	-9.944966e-002	9.275331e-002	4.810219e-002	-5.759088e-002	9.392729e-002	-1.387842e-001	-9.944966e-002	1.855066e-001	1.443066e-001	-2.303635e-001
2.848808465525508e+000	-9.892798e-002	9.127761e-002	4.848452e-002	-5.727020e-002	9.019098e-002	-1.367165e-001	-9.892798e-002	1.825552e-001	1.454535e-001	-2.290808e-001
2.878105340525508e+000	-9.807745e-002	8.905824e-002	4.901016e-002	-5.676737e-002	8.466078e-002	-1.336138e-001	-9.807745e-002	1.781165e-001	1.470305e-001	-2.270695e-001
2.945069626239794e+000	-9.574619e-002	8.391982e-002	4.996336e-002	-5.549588e-002	7.232640e-002	-1.264703e-001	-9.574619e-002	1.678396e-001	1.498901e-001	-2.219835e-001
3.012033911954080e+000	-9.315053e-002	7.882778e-002	5.067575e-002	-5.413307e-002	6.054013e-002	-1.194168e-001	-9.315053e-002	1.576556e-001	1.520273e-001	-2.165323e-001
3.078998197668365e+000	-9.029047e-002	7.378213e-002	5.114733e-002	-5.267894e-002	4.930196e-002	-1.124535e-001	-9.029047e-002	1.475643e-001	1.534420e-001	-2.107158e-001
3.145962483382651e+000	-8.716603e-002	6.878286e-002	5.137811e-002	-5.113351e-002	3.861190e-002	-1.055802e-001	-8.716603e-002	1.375657e-001	1.541343e-001	-2.045340e-001
3.212926769096937e+000	-8.377719e-002	6.382998e-002	5.136808e-002	-4.949675e-002	2.846994e-002	-9.879700e-002	-8.377719e-002	1.276600e-001	1.541043e-001	-1.979870e-001
3.279891054811222e+000	-8.012396e-002	5.892348e-002	5.111725e-002	-4.776869e-002	1.887609e-002	-9.210387e-002	-8.012396e-002	1.178470e-001	1.533518e-001	-1.910747e-001
3.346855340525508e+000	-7.620633e-002	5.406337e-002	5.062561e-002	-4.594931e-002	9.830337e-003	-8.550082e-002	-7.620633e-002	1.081267e-001	1.518768e-001	-1.837972e-001
3.376152215525508e+000	-7.448900e-002	5.198972e-002	5.036810e-002	-4.514869e-002	6.069132e-003	-8.268441e-002	-7.448900e-002	1.039794e-001	1.511043e-001	-1.805947e-001
3.395683465525508e+000	-7.333086e-002	5.061915e-002	5.017726e-002	-4.460980e-002	3.623443e-003	-8.082436e-002	-7.333086e-002	1.012383e-001	1.505318e-001	-1.784392e-001
3.405449090525508e+000	-7.274812e-002	4.993754e-002	5.007624e-002	-4.433892e-002	2.419138e-003	-7.989974e-002	-7.274812e-002	9.987507e-002	1.502287e-001	-1.773557e-001
3.415214715525508e+000	-7.216305e-002	4.925843e-002	4.997154e-002	-4.406711e-002	1.227191e-003	-7.897878e-002	-7.216305e-002	9.851687e-002	1.499146e-001	-1.762685e-001
3.424980340525508e+000	-7.157575e-002	4.858188e-002	4.986322e-002	-4.379442e-002	4.759941e-005	-7.806152e-002	-7.157575e-002	9.716376e-002	1.495897e-001	-1.751777e-001
